Time[s], Channel 0, Channel 1, Channel 2, Channel 3, Channel 4, Channel 5, Channel 6, Channel 7
0.00000000, 0, 0, 0, 0, 0, 0, 0, 0
0.00000110, 0, 0, 0, 0, 1, 0, 0, 0
0.00000111, 0, 0, 0, 0, 0, 0, 0, 0
0.00000113, 1, 1, 1, 1, 1, 0, 1, 1
0.00000114, 0, 0, 0, 0, 0, 0, 0, 0
0.00000116, 1, 1, 1, 1, 1, 0, 1, 1
0.00000119, 1, 0, 0, 0, 0, 0, 1, 1
0.00000120, 0, 0, 0, 0, 0, 0, 0, 0
0.00000122, 0, 1, 0, 1, 0, 0, 0, 1
0.00000708, 1, 1, 0, 1, 0, 0, 0, 1
0.00000709, 1, 1, 1, 0, 1, 0, 1, 1
0.00000710, 0, 0, 1, 0, 0, 0, 0, 1
0.00000908, 1, 1, 1, 0, 1, 0, 1, 1
0.00000909, 1, 1, 1, 0, 1, 0, 1, 0
0.00000910, 0, 0, 0, 0, 1, 0, 1, 0
0.00000912, 1, 0, 0, 0, 1, 0, 1, 0
0.00000913, 1, 0, 0, 1, 1, 0, 0, 1
0.00000914, 1, 1, 1, 0, 1, 0, 1, 0
0.00001009, 1, 1, 1, 0, 1, 0, 0, 1
0.00001108, 1, 1, 1, 1, 1, 0, 0, 1
0.00001109, 0, 1, 0, 1, 1, 0, 0, 1
0.00001209, 1, 0, 0, 1, 1, 0, 0, 1
0.00001210, 0, 1, 0, 1, 1, 0, 0, 1
0.00001211, 1, 0, 0, 1, 1, 0, 0, 1
0.00001213, 0, 1, 0, 1, 0, 0, 0, 1
0.00001309, 1, 0, 0, 1, 1, 0, 0, 1
0.00001310, 0, 1, 0, 1, 0, 0, 0, 1
0.00001311, 1, 0, 0, 1, 1, 0, 0, 1
0.00001312, 0, 1, 0, 1, 1, 0, 0, 1
0.00001313, 0, 1, 0, 1, 0, 0, 0, 1
0.00001409, 1, 0, 0, 1, 1, 0, 0, 1
0.00001410, 0, 1, 0, 1, 0, 0, 0, 1
0.00001609, 1, 0, 0, 1, 1, 0, 0, 1
0.00001610, 0, 1, 0, 1, 0, 0, 0, 1
0.00001809, 0, 0, 0, 0, 0, 0, 0, 0
0.00001909, 1, 0, 0, 0, 1, 0, 0, 0
0.00001910, 0, 0, 0, 0, 0, 0, 0, 0
0.00001912, 1, 0, 0, 0, 1, 0, 0, 0
0.00001913, 0, 0, 0, 0, 0, 0, 0, 0
0.00003110, 0, 0, 0, 0, 1, 0, 0, 0
0.00003112, 0, 0, 0, 0, 0, 0, 0, 0
0.00003308, 1, 1, 1, 1, 1, 0, 1, 0
0.00003309, 1, 0, 1, 1, 1, 0, 1, 1
0.00003310, 0, 0, 0, 0, 0, 0, 0, 0
0.00003311, 1, 1, 1, 0, 0, 0, 1, 1
0.00003314, 1, 1, 1, 0, 1, 0, 1, 1
0.00003315, 0, 0, 0, 0, 1, 0, 0, 0
0.00003508, 1, 1, 1, 0, 1, 0, 1, 0
0.00003510, 1, 1, 1, 1, 1, 0, 1, 1
0.00003512, 1, 0, 0, 1, 1, 0, 1, 0
0.00003709, 0, 0, 1, 1, 0, 0, 1, 1
0.00003710, 1, 0, 0, 1, 1, 0, 1, 0
0.00003809, 1, 0, 0, 0, 1, 0, 0, 1
0.00003908, 1, 0, 0, 1, 1, 0, 0, 1
0.00003909, 1, 1, 0, 1, 1, 0, 0, 1
0.00003910, 1, 1, 0, 0, 1, 0, 0, 0
0.00004009, 1, 1, 0, 1, 1, 0, 0, 1
0.00004010, 0, 0, 0, 0, 0, 0, 1, 0
0.00004108, 0, 0, 0, 1, 1, 0, 1, 0
0.00004109, 1, 1, 1, 1, 1, 0, 0, 1
0.00004112, 1, 1, 0, 1, 1, 0, 0, 1
0.00004309, 0, 1, 0, 1, 1, 0, 0, 1
0.00004409, 0, 1, 1, 0, 0, 0, 1, 0
0.00004509, 1, 0, 1, 0, 0, 0, 0, 1
0.00004609, 0, 1, 1, 0, 0, 0, 1, 0
0.00004709, 1, 1, 1, 0, 1, 0, 1, 0
0.00004710, 0, 0, 0, 0, 0, 0, 0, 0
0.00006110, 0, 0, 0, 0, 1, 0, 0, 0
0.00006111, 0, 0, 0, 0, 0, 0, 0, 0
0.00006113, 1, 1, 1, 1, 1, 0, 1, 1
0.00006114, 0, 0, 1, 0, 0, 0, 0, 0
0.00006115, 0, 0, 0, 0, 0, 0, 0, 0
0.00006116, 1, 1, 1, 1, 1, 0, 1, 1
0.00006119, 1, 1, 0, 1, 1, 0, 1, 1
0.00006120, 0, 0, 0, 0, 0, 0, 0, 0
0.00006122, 0, 1, 0, 1, 0, 0, 0, 1
0.00006123, 1, 0, 0, 1, 1, 0, 0, 1
0.00006125, 0, 1, 0, 1, 0, 0, 0, 1
0.00006209, 1, 0, 0, 1, 1, 0, 0, 1
0.00006210, 0, 1, 0, 1, 0, 0, 0, 1
0.00006211, 1, 0, 0, 1, 1, 0, 0, 1
0.00006212, 1, 1, 0, 1, 1, 0, 0, 1
0.00006213, 0, 1, 0, 1, 0, 0, 0, 1
0.00006309, 1, 0, 0, 1, 1, 0, 0, 1
0.00006510, 1, 0, 0, 0, 0, 0, 1, 1
0.00006511, 0, 0, 0, 0, 0, 0, 1, 0
0.00006608, 0, 0, 0, 1, 0, 0, 1, 0
0.00006609, 1, 0, 0, 1, 1, 0, 1, 1
0.00006610, 1, 1, 1, 1, 0, 0, 1, 1
0.00006613, 1, 1, 0, 1, 1, 0, 0, 1
0.00006708, 1, 1, 0, 1, 1, 0, 1, 1
0.00006709, 0, 1, 1, 1, 0, 0, 1, 1
0.00006809, 1, 1, 0, 1, 1, 0, 0, 1
0.00006910, 1, 1, 1, 1, 1, 0, 1, 1
0.00006911, 1, 1, 0, 1, 1, 0, 0, 1
0.00007009, 0, 0, 0, 0, 0, 0, 0, 0
0.00007108, 0, 0, 0, 1, 1, 0, 0, 0
0.00007109, 1, 0, 0, 1, 1, 0, 0, 0
0.00007110, 0, 0, 0, 0, 0, 0, 0, 0
0.00007111, 1, 0, 0, 0, 0, 0, 0, 1
0.00007112, 1, 0, 1, 0, 0, 0, 0, 1
0.00007209, 0, 0, 0, 0, 1, 0, 0, 0
0.00007308, 1, 1, 1, 0, 1, 0, 0, 0
0.00007309, 1, 1, 1, 0, 1, 0, 1, 0
0.00007310, 1, 1, 1, 1, 1, 0, 1, 1
0.00007312, 0, 1, 0, 1, 1, 0, 1, 0
0.00007409, 1, 1, 0, 1, 1, 0, 0, 1
0.00007410, 1, 1, 1, 1, 1, 0, 0, 1
0.00007412, 1, 1, 0, 1, 1, 0, 0, 1
0.00007413, 0, 0, 0, 0, 0, 0, 0, 1
0.00007414, 0, 0, 0, 0, 0, 0, 0, 0
0.00007508, 0, 0, 0, 1, 1, 0, 0, 0
0.00007509, 1, 0, 0, 1, 0, 0, 0, 0
0.00007510, 0, 0, 0, 0, 0, 0, 0, 0
0.00007511, 1, 1, 0, 1, 1, 0, 0, 0
0.00007512, 1, 1, 0, 1, 1, 0, 0, 1
0.00007609, 0, 0, 0, 0, 0, 0, 0, 0
0.00009110, 0, 0, 0, 0, 1, 0, 0, 0
0.00009111, 0, 0, 0, 0, 0, 0, 0, 0
0.00009113, 1, 1, 1, 1, 1, 0, 1, 1
0.00009114, 1, 0, 1, 0, 0, 0, 0, 0
0.00009115, 0, 0, 0, 0, 0, 0, 0, 0
0.00009116, 1, 1, 1, 1, 1, 0, 1, 1
0.00009120, 0, 0, 0, 0, 0, 0, 0, 0
0.00009122, 0, 1, 0, 1, 0, 0, 0, 1
0.00009123, 1, 0, 0, 1, 1, 0, 0, 1
0.00009125, 0, 1, 0, 1, 0, 0, 0, 1
0.00009209, 1, 0, 0, 1, 1, 0, 0, 1
0.00009210, 0, 1, 0, 1, 0, 0, 0, 1
0.00009409, 1, 0, 0, 1, 1, 0, 0, 1
0.00009410, 0, 0, 0, 1, 0, 0, 0, 1
0.00009509, 1, 0, 0, 1, 1, 0, 0, 1
0.00009510, 0, 0, 0, 1, 0, 0, 0, 1
0.00009609, 1, 0, 0, 1, 1, 0, 0, 1
0.00009610, 0, 0, 0, 1, 0, 0, 0, 1
0.00009709, 1, 0, 0, 1, 1, 0, 0, 1
0.00009710, 0, 0, 0, 1, 0, 0, 0, 1
0.00009809, 1, 0, 0, 1, 1, 0, 0, 1
0.00009810, 0, 0, 0, 1, 0, 0, 0, 1
0.00009909, 1, 0, 0, 1, 1, 0, 0, 1
0.00009910, 0, 0, 0, 1, 0, 0, 0, 1
0.00010009, 1, 0, 0, 1, 1, 0, 0, 1
0.00010010, 0, 0, 0, 1, 0, 0, 0, 1
0.00010109, 1, 0, 0, 1, 1, 0, 0, 1
0.00010110, 0, 0, 0, 1, 0, 0, 0, 1
0.00010209, 1, 0, 0, 1, 1, 0, 0, 1
0.00010210, 0, 0, 0, 1, 0, 0, 0, 1
0.00010309, 1, 0, 0, 1, 1, 0, 0, 1
0.00010310, 0, 0, 0, 1, 0, 0, 0, 1
0.00010409, 1, 0, 0, 1, 1, 0, 0, 1
0.00010410, 0, 0, 0, 1, 0, 0, 0, 1
0.00010509, 1, 0, 0, 1, 1, 0, 0, 1
0.00010510, 0, 0, 0, 1, 0, 0, 0, 1
0.00010609, 1, 0, 0, 1, 1, 0, 0, 1
0.00010610, 1, 1, 1, 1, 1, 0, 1, 1
0.00010611, 1, 1, 1, 1, 1, 0, 0, 1
0.00010612, 1, 0, 0, 1, 1, 0, 0, 1
0.00010809, 0, 0, 0, 0, 0, 0, 0, 0
0.00010908, 0, 0, 0, 1, 1, 0, 0, 0
0.00010909, 0, 0, 0, 0, 0, 0, 0, 0
0.00010912, 1, 1, 1, 1, 0, 0, 0, 0
0.00010913, 0, 0, 0, 0, 0, 0, 0, 0
0.00012110, 0, 0, 0, 0, 1, 0, 0, 0
0.00012111, 0, 0, 0, 0, 0, 0, 0, 0
0.00012308, 0, 0, 0, 1, 1, 0, 1, 0
0.00012309, 1, 1, 1, 1, 1, 0, 1, 1
0.00012310, 0, 0, 0, 0, 0, 0, 0, 0
0.00012311, 1, 0, 0, 0, 0, 0, 1, 1
0.00012312, 1, 0, 1, 0, 0, 0, 1, 1
0.00012409, 0, 0, 0, 0, 1, 0, 0, 0
0.00012509, 1, 1, 1, 0, 1, 0, 1, 0
0.00012510, 1, 1, 0, 0, 0, 0, 1, 1
0.00012512, 1, 1, 1, 0, 1, 0, 1, 0
0.00012513, 1, 0, 0, 1, 1, 0, 0, 1
0.00012608, 1, 0, 0, 1, 1, 0, 1, 1
0.00012609, 1, 1, 1, 0, 1, 0, 1, 0
0.00012909, 1, 0, 0, 1, 1, 0, 0, 1
0.00013009, 1, 1, 1, 1, 1, 0, 1, 0
0.00013010, 1, 0, 0, 1, 1, 0, 0, 1
0.00013109, 1, 1, 1, 0, 1, 0, 1, 0
0.00013110, 1, 1, 1, 0, 1, 0, 0, 1
0.00013111, 1, 1, 1, 0, 1, 0, 1, 1
0.00013112, 1, 1, 1, 0, 1, 0, 1, 0
0.00013710, 0, 0, 0, 0, 0, 0, 0, 0
0.00015209, 0, 0, 1, 0, 0, 0, 1, 0
0.00015210, 0, 0, 0, 0, 1, 0, 0, 0
0.00015211, 0, 0, 0, 0, 0, 0, 0, 0
0.00015212, 0, 0, 1, 0, 0, 0, 1, 0
0.00015213, 1, 0, 0, 1, 1, 0, 0, 1
0.00015214, 0, 0, 1, 0, 1, 0, 1, 0
0.00015215, 0, 0, 1, 0, 0, 0, 1, 0
0.00015216, 1, 0, 1, 1, 1, 0, 1, 1
0.00015217, 0, 0, 1, 0, 0, 0, 1, 0
0.00015219, 1, 0, 1, 1, 1, 0, 1, 1
0.00015220, 0, 0, 1, 0, 0, 0, 1, 0
0.00015222, 1, 0, 1, 1, 1, 0, 1, 1
0.00015223, 0, 0, 1, 0, 0, 0, 1, 0
0.00015225, 1, 0, 1, 1, 1, 0, 1, 1
0.00015226, 0, 0, 1, 0, 0, 0, 1, 0
0.00015228, 1, 0, 1, 1, 1, 0, 1, 1
0.00015229, 0, 0, 1, 0, 0, 0, 1, 0
0.00015231, 0, 0, 1, 1, 1, 0, 1, 1
0.00015232, 0, 0, 1, 0, 0, 0, 1, 0
0.00015236, 0, 0, 1, 1, 1, 0, 1, 0
0.00015237, 0, 0, 1, 0, 0, 0, 1, 0
0.00015239, 0, 0, 1, 1, 1, 0, 1, 0
0.00015240, 0, 0, 1, 0, 0, 0, 1, 0
0.00015242, 1, 0, 1, 1, 1, 0, 1, 1
0.00015243, 0, 0, 1, 0, 0, 0, 1, 0
0.00015245, 1, 0, 1, 1, 1, 0, 1, 1
0.00015246, 0, 0, 1, 0, 0, 0, 1, 0
0.00015248, 1, 0, 1, 1, 1, 0, 1, 1
0.00015249, 0, 0, 1, 0, 0, 0, 1, 0
0.00015251, 1, 0, 1, 1, 1, 0, 1, 1
0.00015252, 0, 0, 1, 0, 0, 0, 1, 0
0.00015254, 0, 0, 1, 1, 1, 0, 1, 1
0.00015255, 0, 0, 1, 0, 0, 0, 1, 0
0.00015257, 1, 0, 0, 1, 1, 0, 0, 1
0.00015309, 0, 0, 1, 0, 0, 0, 1, 0
0.00015409, 1, 0, 1, 1, 1, 0, 1, 1
0.00015410, 0, 0, 1, 0, 0, 0, 1, 0
0.00015417, 0, 0, 1, 1, 1, 0, 1, 0
0.00015418, 0, 0, 1, 0, 0, 0, 1, 0
0.00015420, 1, 0, 1, 1, 1, 0, 1, 1
0.00015421, 0, 0, 1, 0, 0, 0, 1, 0
0.00015423, 1, 0, 1, 1, 1, 0, 0, 1
0.00015424, 0, 0, 1, 0, 0, 0, 1, 0
0.00015426, 1, 0, 1, 1, 1, 0, 1, 1
0.00015427, 0, 0, 1, 0, 0, 0, 1, 0
0.00015429, 1, 0, 1, 1, 1, 0, 1, 1
0.00015430, 0, 0, 1, 0, 0, 0, 1, 0
0.00015432, 1, 0, 1, 1, 1, 0, 1, 1
0.00015433, 0, 0, 1, 0, 0, 0, 1, 0
0.00015435, 0, 0, 1, 1, 0, 0, 1, 0
0.00015436, 0, 0, 1, 0, 0, 0, 1, 0
0.00015443, 0, 0, 1, 1, 1, 0, 1, 0
0.00015444, 0, 0, 1, 0, 0, 0, 1, 0
0.00015446, 1, 0, 1, 1, 1, 0, 0, 1
0.00015447, 0, 0, 1, 0, 0, 0, 1, 0
0.00015449, 1, 0, 1, 1, 1, 0, 0, 1
0.00015450, 0, 0, 1, 0, 0, 0, 1, 0
0.00015452, 1, 0, 1, 1, 1, 0, 1, 1
0.00015453, 0, 0, 1, 0, 0, 0, 1, 0
0.00015455, 0, 0, 1, 1, 1, 0, 1, 1
0.00015456, 0, 0, 1, 0, 0, 0, 1, 0
0.00015509, 1, 0, 1, 1, 1, 0, 1, 1
0.00015510, 0, 0, 1, 0, 0, 0, 1, 0
0.00015517, 0, 0, 1, 1, 1, 0, 1, 0
0.00015518, 0, 0, 1, 0, 0, 0, 1, 0
0.00015520, 1, 0, 1, 1, 1, 0, 0, 1
0.00015521, 0, 0, 1, 0, 0, 0, 1, 0
0.00015523, 1, 0, 1, 1, 1, 0, 0, 1
0.00015524, 0, 0, 1, 0, 0, 0, 1, 0
0.00015526, 1, 0, 1, 1, 1, 0, 0, 1
0.00015527, 0, 0, 1, 0, 0, 0, 1, 0
0.00015529, 1, 0, 1, 1, 1, 0, 1, 1
0.00015530, 0, 0, 1, 0, 0, 0, 1, 0
0.00015532, 1, 0, 1, 1, 1, 0, 1, 1
0.00015533, 0, 0, 1, 0, 0, 0, 1, 0
0.00015535, 0, 0, 1, 1, 1, 0, 1, 1
0.00015536, 0, 0, 1, 0, 0, 0, 1, 0
0.00015543, 0, 0, 1, 1, 1, 0, 1, 0
0.00015544, 0, 0, 1, 0, 0, 0, 1, 0
0.00015546, 1, 0, 1, 1, 1, 0, 0, 1
0.00015547, 0, 0, 1, 0, 0, 0, 1, 0
0.00015549, 1, 0, 1, 1, 1, 0, 0, 1
0.00015550, 0, 0, 1, 0, 0, 0, 1, 0
0.00015552, 1, 0, 1, 1, 1, 0, 1, 1
0.00015553, 0, 0, 1, 0, 0, 0, 1, 0
0.00015555, 1, 0, 1, 1, 1, 0, 1, 1
0.00015556, 0, 0, 1, 0, 0, 0, 1, 0
0.00015609, 1, 0, 1, 1, 1, 0, 1, 1
0.00015610, 0, 0, 1, 0, 0, 0, 1, 0
0.00015617, 0, 0, 1, 1, 1, 0, 1, 0
0.00015618, 0, 0, 1, 0, 0, 0, 1, 0
0.00015620, 1, 0, 1, 1, 1, 0, 0, 1
0.00015621, 0, 0, 1, 0, 0, 0, 1, 0
0.00015623, 1, 0, 1, 1, 1, 0, 0, 1
0.00015624, 0, 0, 1, 0, 0, 0, 1, 0
0.00015626, 1, 0, 1, 1, 1, 0, 0, 1
0.00015627, 0, 0, 1, 0, 0, 0, 1, 0
0.00015629, 1, 0, 1, 1, 1, 0, 1, 1
0.00015630, 0, 0, 1, 0, 0, 0, 1, 0
0.00015632, 1, 0, 1, 1, 1, 0, 1, 1
0.00015633, 0, 0, 1, 0, 0, 0, 1, 0
0.00015635, 0, 0, 1, 1, 1, 0, 1, 1
0.00015636, 0, 0, 1, 0, 0, 0, 1, 0
0.00015640, 0, 0, 1, 0, 1, 0, 1, 0
0.00015641, 0, 0, 1, 0, 0, 0, 1, 0
0.00015643, 0, 0, 1, 1, 1, 0, 0, 0
0.00015644, 0, 0, 1, 0, 0, 0, 1, 0
0.00015646, 1, 0, 1, 1, 1, 0, 0, 1
0.00015647, 0, 0, 1, 0, 0, 0, 1, 0
0.00015649, 1, 0, 1, 1, 1, 0, 0, 1
0.00015650, 0, 0, 1, 0, 0, 0, 1, 0
0.00015652, 1, 0, 1, 1, 1, 0, 1, 1
0.00015653, 0, 0, 1, 0, 0, 0, 1, 0
0.00015655, 1, 0, 1, 1, 1, 0, 1, 1
0.00015656, 0, 0, 1, 0, 0, 0, 1, 0
0.00015709, 1, 0, 1, 1, 1, 0, 1, 1
0.00015710, 0, 0, 1, 0, 0, 0, 1, 0
0.00015717, 0, 0, 1, 1, 1, 0, 1, 0
0.00015718, 0, 0, 1, 0, 0, 0, 1, 0
0.00015720, 1, 0, 1, 1, 1, 0, 0, 1
0.00015721, 0, 0, 1, 0, 0, 0, 1, 0
0.00015723, 1, 0, 0, 1, 1, 0, 0, 1
0.00015724, 0, 0, 1, 0, 0, 0, 1, 0
0.00015726, 1, 0, 1, 1, 1, 0, 0, 1
0.00015727, 0, 0, 1, 0, 0, 0, 1, 0
0.00015729, 1, 0, 1, 1, 1, 0, 0, 1
0.00015730, 0, 0, 1, 0, 0, 0, 1, 0
0.00015732, 1, 0, 1, 1, 1, 0, 1, 1
0.00015733, 0, 0, 1, 0, 0, 0, 1, 0
0.00015735, 0, 0, 1, 1, 1, 0, 1, 1
0.00015736, 0, 0, 1, 0, 0, 0, 1, 0
0.00015740, 0, 0, 1, 0, 1, 0, 1, 0
0.00015741, 0, 0, 1, 0, 0, 0, 1, 0
0.00015743, 0, 0, 1, 1, 1, 0, 0, 0
0.00015744, 0, 0, 1, 0, 0, 0, 1, 0
0.00015746, 1, 0, 1, 1, 1, 0, 0, 1
0.00015747, 0, 0, 1, 0, 0, 0, 1, 0
0.00015749, 1, 0, 1, 1, 1, 0, 0, 1
0.00015750, 0, 0, 1, 0, 0, 0, 1, 0
0.00015752, 1, 0, 1, 1, 1, 0, 1, 1
0.00015753, 0, 0, 1, 0, 0, 0, 1, 0
0.00015755, 1, 0, 1, 1, 1, 0, 1, 1
0.00015756, 0, 0, 1, 0, 0, 0, 1, 0
0.00015809, 1, 0, 1, 1, 1, 0, 1, 1
0.00015810, 0, 0, 1, 0, 0, 0, 1, 0
0.00015815, 1, 0, 0, 0, 1, 0, 0, 0
0.00015816, 1, 1, 0, 0, 1, 0, 0, 0
0.00015817, 1, 0, 0, 1, 1, 0, 0, 0
0.00015818, 1, 0, 0, 1, 1, 0, 0, 1
0.00015819, 0, 0, 1, 0, 0, 0, 0, 0
0.00015909, 0, 0, 0, 1, 1, 0, 0, 1
0.00015910, 0, 0, 0, 0, 1, 0, 1, 0
0.00015912, 1, 0, 0, 1, 1, 0, 0, 1
0.00016108, 1, 0, 0, 1, 1, 0, 1, 1
0.00016109, 1, 1, 1, 0, 1, 0, 1, 0
0.00016509, 1, 0, 0, 1, 1, 0, 0, 1
0.00016608, 1, 0, 0, 1, 1, 0, 1, 1
0.00016609, 1, 1, 1, 0, 1, 0, 1, 0
0.00016709, 1, 0, 0, 1, 1, 0, 0, 1
0.00016809, 0, 0, 0, 0, 0, 0, 0, 0
0.00018110, 0, 0, 0, 0, 1, 0, 0, 0
0.00018112, 0, 0, 0, 0, 0, 0, 0, 0
0.00018308, 0, 1, 1, 1, 1, 0, 1, 0
0.00018309, 1, 1, 1, 1, 1, 0, 1, 1
0.00018310, 0, 0, 0, 0, 0, 0, 0, 0
0.00018311, 1, 1, 1, 0, 0, 0, 1, 1
0.00018314, 1, 1, 1, 0, 1, 0, 1, 1
0.00018317, 0, 0, 0, 0, 1, 0, 0, 0
0.00018319, 1, 1, 1, 0, 1, 0, 1, 0
0.00018322, 1, 1, 1, 1, 1, 0, 1, 1
0.00018323, 1, 1, 1, 0, 1, 0, 1, 0
0.00018325, 1, 1, 1, 1, 1, 0, 1, 1
0.00018326, 1, 1, 1, 0, 1, 0, 1, 0
0.00018328, 0, 0, 0, 0, 1, 0, 0, 0
0.00018408, 1, 1, 0, 0, 1, 0, 1, 0
0.00018409, 1, 1, 1, 0, 1, 0, 1, 0
0.00018410, 1, 1, 1, 1, 1, 0, 0, 1
0.00018411, 1, 1, 1, 1, 1, 0, 1, 1
0.00018412, 0, 1, 0, 1, 1, 0, 1, 0
0.00018509, 1, 0, 0, 1, 1, 0, 1, 0
0.00018709, 0, 0, 0, 1, 0, 0, 0, 1
0.00018809, 1, 1, 0, 1, 1, 0, 0, 1
0.00018810, 0, 0, 0, 1, 0, 0, 0, 1
0.00019009, 0, 1, 1, 0, 0, 0, 1, 0
0.00019209, 0, 0, 0, 1, 0, 0, 0, 1
0.00019308, 0, 0, 0, 1, 0, 0, 1, 1
0.00019309, 0, 1, 0, 1, 0, 0, 1, 0
0.00019310, 0, 0, 0, 1, 0, 0, 0, 1
0.00019408, 0, 0, 0, 1, 0, 0, 1, 1
0.00019409, 1, 0, 0, 1, 0, 0, 1, 0
0.00019410, 0, 0, 0, 1, 0, 0, 0, 1
0.00019411, 1, 0, 0, 1, 1, 0, 0, 1
0.00019412, 1, 0, 0, 1, 0, 0, 0, 1
0.00019413, 0, 0, 0, 1, 0, 0, 0, 1
0.00019509, 1, 0, 0, 1, 1, 0, 0, 1
0.00019510, 0, 0, 0, 1, 0, 0, 0, 1
0.00019609, 1, 0, 0, 1, 1, 0, 0, 1
0.00019610, 1, 1, 1, 1, 1, 0, 1, 1
0.00019612, 1, 0, 0, 1, 1, 0, 0, 1
0.00019809, 0, 0, 0, 0, 0, 0, 0, 0
0.00021110, 0, 0, 0, 0, 1, 0, 0, 0
0.00021112, 0, 0, 0, 0, 0, 0, 0, 0
0.00021308, 0, 1, 1, 1, 1, 0, 1, 0
0.00021309, 1, 1, 1, 1, 1, 0, 1, 1
0.00021310, 0, 0, 0, 0, 0, 0, 0, 0
0.00021311, 1, 0, 1, 0, 0, 0, 1, 1
0.00021409, 0, 0, 0, 0, 1, 0, 0, 0
0.00021508, 1, 1, 0, 0, 1, 0, 1, 0
0.00021509, 1, 1, 1, 0, 1, 0, 1, 0
0.00021510, 1, 1, 1, 0, 1, 0, 1, 1
0.00021512, 1, 0, 0, 1, 1, 0, 1, 0
0.00021609, 0, 1, 0, 1, 0, 0, 0, 1
0.00021709, 1, 1, 1, 0, 1, 0, 0, 1
0.00021710, 0, 1, 0, 1, 0, 0, 0, 1
0.00021809, 1, 1, 1, 1, 1, 0, 1, 0
0.00021810, 1, 1, 1, 1, 1, 0, 0, 1
0.00021811, 1, 1, 1, 1, 1, 0, 1, 1
0.00021812, 1, 1, 1, 0, 1, 0, 1, 0
0.00021815, 1, 1, 1, 1, 1, 0, 1, 0
0.00021816, 1, 0, 1, 1, 1, 0, 1, 1
0.00021909, 1, 1, 1, 0, 1, 0, 1, 0
0.00022009, 1, 0, 1, 1, 1, 0, 1, 1
0.00022010, 1, 1, 1, 0, 1, 0, 1, 0
0.00022109, 0, 0, 1, 1, 0, 0, 1, 1
0.00022209, 1, 1, 1, 0, 1, 0, 1, 0
0.00022210, 0, 0, 1, 1, 0, 0, 1, 1
0.00022211, 1, 1, 1, 0, 1, 0, 1, 0
0.00022212, 0, 0, 1, 1, 0, 0, 1, 1
0.00022409, 1, 1, 1, 0, 1, 0, 1, 0
0.00022410, 0, 0, 1, 1, 0, 0, 1, 1
0.00022411, 1, 1, 1, 0, 1, 0, 1, 0
0.00022412, 0, 0, 1, 1, 0, 0, 1, 1
0.00022415, 1, 1, 1, 1, 1, 0, 1, 1
0.00022416, 0, 0, 1, 1, 0, 0, 1, 1
0.00022509, 1, 1, 1, 0, 1, 0, 1, 0
0.00022609, 0, 0, 1, 1, 0, 0, 1, 1
0.00022709, 1, 1, 1, 0, 1, 0, 1, 0
0.00022710, 1, 0, 0, 0, 1, 0, 0, 0
0.00022712, 0, 0, 0, 0, 0, 0, 0, 0
0.00022809, 1, 0, 0, 0, 1, 0, 0, 0
0.00022810, 0, 0, 0, 0, 0, 0, 0, 0
0.00022909, 1, 0, 0, 0, 1, 0, 0, 0
0.00022910, 0, 0, 0, 0, 0, 0, 0, 0
0.00023009, 1, 0, 0, 0, 1, 0, 0, 0
0.00023010, 0, 0, 0, 0, 0, 0, 0, 0
0.00023109, 1, 0, 0, 0, 1, 0, 0, 0
0.00023110, 0, 0, 0, 0, 0, 0, 0, 0
0.00023209, 1, 0, 0, 0, 1, 0, 0, 0
0.00023210, 0, 0, 0, 0, 0, 0, 0, 0
0.00023309, 1, 0, 0, 0, 1, 0, 0, 0
0.00023310, 0, 0, 0, 0, 0, 0, 0, 0
0.00023409, 1, 0, 0, 0, 1, 0, 0, 0
0.00023410, 0, 0, 0, 0, 0, 0, 0, 0
0.00023509, 1, 0, 0, 0, 1, 0, 0, 0
0.00023510, 0, 0, 0, 0, 0, 0, 0, 0
0.00023609, 1, 0, 0, 0, 1, 0, 0, 0
0.00023610, 0, 0, 0, 0, 0, 0, 0, 0
0.00023709, 1, 0, 0, 0, 1, 0, 0, 0
0.00023710, 0, 0, 0, 0, 0, 0, 0, 0
0.00023809, 1, 0, 0, 0, 1, 0, 0, 0
0.00023810, 0, 0, 0, 0, 0, 0, 0, 0
0.00023909, 1, 0, 0, 0, 1, 0, 0, 0
0.00023910, 0, 0, 0, 0, 0, 0, 0, 0
0.00024009, 1, 0, 0, 0, 1, 0, 0, 0
0.00024010, 0, 0, 0, 0, 0, 0, 0, 0
0.00024109, 1, 0, 0, 0, 1, 0, 0, 0
0.00024110, 0, 0, 0, 0, 1, 0, 0, 0
0.00024112, 1, 0, 0, 0, 1, 0, 0, 0
0.00024113, 1, 0, 0, 1, 1, 0, 0, 1
0.00024115, 1, 0, 0, 0, 1, 0, 0, 0
0.00024116, 1, 0, 0, 1, 1, 0, 0, 1
0.00024117, 1, 0, 0, 0, 1, 0, 0, 0
0.00024119, 1, 0, 0, 1, 1, 0, 0, 1
0.00024120, 1, 0, 0, 0, 1, 0, 0, 0
0.00024122, 1, 0, 0, 1, 1, 0, 0, 1
0.00024123, 1, 0, 0, 0, 1, 0, 0, 0
0.00024125, 1, 0, 0, 1, 1, 0, 0, 1
0.00024126, 1, 0, 0, 0, 1, 0, 0, 0
0.00024128, 1, 0, 0, 1, 1, 0, 0, 1
0.00024129, 1, 0, 0, 0, 1, 0, 0, 0
0.00024131, 1, 0, 0, 1, 1, 0, 0, 1
0.00024132, 1, 0, 0, 0, 1, 0, 0, 0
0.00024134, 1, 0, 0, 1, 1, 0, 0, 1
0.00024135, 1, 0, 0, 0, 1, 0, 0, 0
0.00024137, 1, 0, 0, 1, 1, 0, 0, 1
0.00024138, 1, 0, 0, 0, 1, 0, 0, 0
0.00024142, 1, 0, 0, 1, 1, 0, 0, 1
0.00024143, 1, 0, 0, 0, 1, 0, 0, 0
0.00024145, 1, 0, 0, 1, 1, 0, 0, 1
0.00024146, 1, 0, 0, 0, 1, 0, 0, 0
0.00024148, 1, 0, 0, 1, 1, 0, 0, 1
0.00024149, 1, 0, 0, 0, 1, 0, 0, 0
0.00024151, 1, 0, 0, 1, 1, 0, 0, 1
0.00024152, 1, 0, 0, 0, 1, 0, 0, 0
0.00024154, 1, 0, 0, 1, 1, 0, 0, 1
0.00024155, 1, 0, 0, 0, 1, 0, 0, 0
0.00024157, 1, 0, 0, 1, 1, 0, 0, 1
0.00024209, 1, 0, 0, 0, 1, 0, 0, 0
0.00024309, 1, 0, 0, 1, 1, 0, 0, 1
0.00024310, 1, 0, 0, 0, 1, 0, 0, 0
0.00024409, 1, 0, 0, 1, 1, 0, 0, 1
0.00024410, 0, 0, 0, 0, 0, 0, 0, 0
0.00024509, 1, 0, 0, 1, 1, 0, 0, 1
0.00024510, 1, 1, 1, 1, 0, 0, 0, 1
0.00024512, 0, 1, 0, 1, 1, 0, 0, 1
0.00024609, 0, 1, 1, 0, 0, 0, 1, 0
0.00024709, 1, 1, 0, 0, 0, 0, 0, 1
0.00024710, 0, 1, 1, 0, 0, 0, 1, 0
0.00024711, 1, 1, 1, 0, 0, 0, 0, 0
0.00024713, 0, 1, 1, 0, 0, 0, 1, 0
0.00024809, 1, 1, 1, 0, 1, 0, 1, 0
0.00024810, 0, 1, 1, 0, 0, 0, 1, 0
0.00024909, 1, 1, 1, 0, 1, 0, 1, 0
0.00024910, 0, 1, 1, 0, 0, 0, 1, 0
0.00025009, 1, 1, 1, 0, 1, 0, 1, 0
0.00025010, 0, 1, 1, 0, 0, 0, 1, 0
0.00025109, 1, 1, 1, 0, 1, 0, 1, 0
0.00025110, 0, 1, 1, 0, 0, 0, 1, 0
0.00025209, 1, 1, 1, 0, 1, 0, 1, 0
0.00025210, 0, 1, 1, 0, 0, 0, 1, 0
0.00025309, 1, 1, 1, 0, 1, 0, 1, 0
0.00025310, 0, 1, 1, 0, 0, 0, 1, 0
0.00025409, 1, 1, 1, 0, 1, 0, 1, 0
0.00025410, 0, 1, 1, 0, 0, 0, 1, 0
0.00025509, 1, 1, 1, 0, 1, 0, 1, 0
0.00025510, 0, 1, 1, 0, 0, 0, 1, 0
0.00025609, 1, 1, 1, 0, 1, 0, 1, 0
0.00025610, 1, 1, 1, 1, 1, 0, 1, 0
0.00026109, 0, 0, 0, 0, 0, 0, 0, 0
0.00027110, 0, 0, 0, 0, 1, 0, 0, 0
0.00027112, 0, 0, 0, 0, 0, 0, 0, 0
0.00027113, 1, 1, 1, 1, 1, 0, 1, 0
0.00027114, 1, 1, 1, 1, 1, 0, 1, 1
0.00027115, 0, 0, 0, 0, 0, 0, 0, 0
0.00027116, 1, 1, 1, 1, 1, 0, 1, 1
0.00027120, 0, 0, 0, 0, 0, 0, 0, 0
0.00027122, 0, 1, 0, 1, 0, 0, 0, 1
0.00027123, 1, 1, 0, 1, 1, 0, 0, 1
0.00027124, 1, 0, 0, 1, 1, 0, 0, 1
0.00027125, 0, 1, 0, 1, 0, 0, 0, 1
0.00027209, 1, 0, 0, 1, 1, 0, 0, 1
0.00027210, 0, 1, 0, 1, 0, 0, 0, 1
0.00027211, 1, 0, 0, 1, 1, 0, 0, 1
0.00027212, 1, 1, 0, 1, 1, 0, 0, 1
0.00027213, 0, 1, 0, 1, 0, 0, 0, 1
0.00027309, 1, 0, 0, 1, 1, 0, 0, 1
0.00027310, 0, 1, 0, 1, 0, 0, 0, 1
0.00027311, 1, 0, 0, 1, 1, 0, 0, 1
0.00027312, 1, 1, 0, 1, 1, 0, 0, 1
0.00027313, 0, 1, 0, 1, 0, 0, 0, 1
0.00027409, 1, 0, 0, 1, 1, 0, 0, 1
0.00027410, 0, 1, 0, 1, 0, 0, 0, 1
0.00027411, 1, 0, 0, 1, 1, 0, 0, 1
0.00027412, 1, 1, 0, 1, 1, 0, 0, 1
0.00027413, 0, 1, 0, 1, 0, 0, 0, 1
0.00027509, 1, 0, 0, 1, 1, 0, 0, 1
0.00027510, 0, 1, 0, 1, 0, 0, 0, 1
0.00027511, 1, 0, 0, 1, 1, 0, 0, 1
0.00027513, 0, 1, 0, 1, 0, 0, 0, 1
0.00027609, 1, 0, 0, 1, 1, 0, 0, 1
0.00027610, 0, 1, 0, 1, 0, 0, 0, 1
0.00027709, 1, 0, 0, 1, 1, 0, 0, 1
0.00027710, 1, 0, 0, 1, 0, 0, 0, 1
0.00027711, 1, 0, 1, 0, 0, 0, 0, 1
0.00027809, 1, 0, 0, 1, 1, 0, 0, 1
0.00027810, 0, 0, 0, 0, 0, 0, 1, 1
0.00027811, 0, 0, 0, 0, 0, 0, 0, 0
0.00027812, 1, 0, 0, 1, 1, 0, 1, 1
