Time[s], Channel 0, Channel 1, Channel 2, Channel 3, Channel 4, Channel 5, Channel 6, Channel 7
0.00000, 0, 0, 0, 0, 0, 0, 0, 0
0.00020, 0, 1, 0, 0, 0, 0, 0, 0
0.00025, 1, 1, 1, 1, 0, 0, 1, 1
0.00030, 1, 0, 0, 1, 1, 0, 0, 1
0.00035, 0, 1, 0, 1, 0, 0, 0, 1
0.00040, 0, 0, 1, 1, 0, 0, 1, 1
0.00065, 0, 0, 0, 1, 0, 0, 0, 1
0.00070, 1, 1, 1, 0, 1, 0, 1, 0
0.00075, 1, 1, 0, 0, 1, 0, 0, 0
0.00080, 0, 0, 0, 0, 0, 0, 0, 0
0.00120, 0, 0, 1, 0, 0, 0, 1, 0
0.00125, 1, 0, 1, 0, 1, 0, 1, 0
0.00130, 1, 0, 0, 1, 1, 0, 0, 1
0.00135, 1, 1, 0, 1, 1, 0, 0, 1
0.00145, 0, 0, 1, 1, 0, 0, 1, 1
0.00165, 0, 1, 0, 1, 0, 0, 0, 1
0.00170, 0, 1, 1, 0, 0, 0, 1, 0
0.00175, 1, 0, 1, 0, 1, 0, 1, 0
0.00180, 1, 0, 0, 0, 1, 0, 0, 0
0.00185, 0, 0, 0, 0, 0, 0, 0, 0
0.00220, 0, 1, 0, 0, 0, 0, 0, 0
0.00225, 0, 0, 1, 0, 0, 0, 1, 0
0.00230, 1, 1, 1, 1, 0, 0, 1, 1
0.00235, 0, 1, 0, 1, 0, 0, 0, 1
0.00240, 0, 0, 1, 1, 0, 0, 1, 1
0.00265, 1, 0, 0, 1, 1, 0, 0, 1
0.00270, 0, 1, 1, 0, 0, 0, 1, 0
0.00275, 0, 1, 0, 0, 0, 0, 0, 0
0.00280, 0, 0, 0, 0, 0, 0, 0, 0
0.00320, 0, 1, 0, 0, 0, 0, 0, 0
0.00325, 0, 0, 1, 0, 0, 0, 1, 0
0.00330, 0, 0, 0, 1, 0, 0, 0, 1
0.00335, 0, 1, 0, 1, 0, 0, 0, 1
0.00340, 0, 0, 1, 1, 0, 0, 1, 1
0.00365, 1, 0, 0, 1, 1, 0, 0, 1
0.00370, 1, 0, 1, 0, 1, 0, 1, 0
0.00375, 1, 1, 0, 0, 1, 0, 0, 0
0.00380, 0, 0, 0, 0, 0, 0, 0, 0
0.00420, 0, 1, 0, 0, 0, 0, 0, 0
0.00425, 0, 0, 1, 0, 0, 0, 1, 0
0.00430, 1, 0, 0, 1, 1, 0, 0, 1
0.00435, 0, 0, 1, 1, 0, 0, 1, 1
0.00460, 1, 0, 1, 1, 1, 0, 1, 1
0.00465, 1, 0, 0, 1, 1, 0, 0, 1
0.00470, 0, 0, 1, 0, 0, 0, 1, 0
0.00480, 0, 0, 0, 0, 0, 0, 0, 0
0.00520, 1, 1, 0, 0, 1, 0, 0, 0
0.00525, 0, 1, 1, 0, 0, 0, 1, 0
0.00530, 1, 1, 1, 0, 1, 0, 1, 0
0.00535, 0, 1, 0, 1, 0, 0, 0, 1
0.00545, 0, 1, 1, 1, 0, 0, 1, 1
0.00555, 1, 0, 1, 1, 1, 0, 1, 1
0.00565, 1, 1, 0, 1, 1, 0, 0, 1
0.00570, 1, 1, 1, 0, 1, 0, 1, 0
0.00575, 1, 1, 0, 0, 1, 0, 0, 0
0.00580, 1, 0, 0, 0, 1, 0, 0, 0
0.00620, 1, 1, 0, 0, 1, 0, 0, 0
0.00625, 1, 0, 1, 0, 1, 0, 1, 0
0.00630, 1, 1, 1, 0, 1, 0, 1, 1
0.00635, 0, 1, 0, 1, 0, 0, 0, 1
0.00640, 0, 0, 1, 1, 0, 0, 1, 1
0.00665, 1, 0, 1, 1, 1, 0, 0, 1
0.00670, 1, 1, 1, 0, 1, 0, 1, 0
0.00675, 1, 1, 0, 0, 1, 0, 0, 0
0.00680, 1, 0, 0, 0, 1, 0, 0, 0
0.00705, 0, 0, 0, 0, 0, 0, 0, 0
0.00720, 0, 1, 0, 0, 0, 0, 0, 0
0.00725, 0, 0, 1, 0, 0, 0, 1, 0
0.00730, 1, 1, 0, 1, 1, 0, 0, 1
0.00745, 0, 0, 1, 1, 0, 0, 1, 1
0.00755, 0, 1, 1, 1, 0, 0, 1, 1
0.00765, 1, 0, 0, 1, 1, 0, 0, 1
0.00770, 0, 0, 1, 0, 0, 0, 1, 0
0.00775, 0, 0, 0, 0, 0, 0, 0, 0
0.00820, 0, 1, 0, 0, 0, 0, 0, 0
0.00825, 0, 1, 1, 0, 0, 0, 1, 0
0.00830, 0, 0, 0, 1, 0, 0, 0, 1
0.00835, 0, 1, 0, 1, 0, 0, 0, 1
0.00840, 0, 0, 1, 1, 0, 0, 1, 1
0.00865, 0, 1, 0, 1, 0, 0, 0, 1
0.00870, 1, 1, 1, 0, 1, 0, 1, 0
0.00875, 0, 0, 0, 0, 0, 0, 0, 0
0.00920, 0, 1, 0, 0, 0, 0, 0, 0
0.00925, 0, 0, 1, 0, 0, 0, 1, 0
0.00930, 0, 0, 0, 1, 0, 0, 0, 1
0.00935, 0, 1, 0, 1, 0, 0, 0, 1
0.00940, 0, 0, 1, 1, 0, 0, 1, 1
0.00965, 0, 1, 0, 1, 1, 0, 0, 1
0.00970, 0, 1, 1, 0, 0, 0, 1, 0
0.00975, 1, 1, 0, 0, 1, 0, 0, 0
0.00980, 0, 0, 0, 0, 0, 0, 0, 0
0.01020, 0, 1, 0, 0, 0, 0, 0, 0
0.01025, 1, 0, 1, 0, 1, 0, 1, 0
0.01030, 0, 1, 0, 1, 0, 0, 0, 1
0.01040, 0, 0, 1, 1, 0, 0, 1, 1
0.01065, 0, 0, 0, 1, 0, 0, 0, 1
0.01070, 0, 1, 1, 0, 0, 0, 1, 0
0.01075, 0, 0, 1, 0, 0, 0, 0, 0
0.01080, 0, 0, 0, 0, 0, 0, 0, 0
0.01120, 0, 1, 0, 0, 0, 0, 0, 0
0.01125, 0, 0, 1, 0, 0, 0, 1, 0
0.01130, 1, 1, 0, 1, 1, 0, 0, 1
0.01135, 0, 1, 0, 1, 0, 0, 0, 1
0.01140, 0, 0, 1, 1, 0, 0, 1, 1
0.01165, 1, 0, 0, 1, 1, 0, 0, 1
0.01170, 0, 1, 1, 0, 0, 0, 1, 0
0.01175, 0, 0, 1, 0, 0, 0, 1, 0
0.01180, 0, 0, 0, 0, 0, 0, 0, 0
0.01220, 0, 1, 0, 0, 0, 0, 0, 0
0.01225, 0, 0, 1, 0, 0, 0, 1, 0
0.01230, 0, 0, 0, 1, 0, 0, 0, 1
0.01235, 0, 0, 1, 1, 0, 0, 1, 1
0.01265, 0, 0, 0, 1, 0, 0, 0, 1
0.01270, 1, 1, 1, 0, 1, 0, 1, 0
0.01275, 1, 0, 0, 0, 1, 0, 0, 0
0.01280, 0, 0, 0, 0, 0, 0, 0, 0
0.01320, 0, 1, 0, 0, 0, 0, 0, 0
0.01325, 1, 1, 1, 0, 1, 0, 1, 0
0.01330, 1, 0, 0, 1, 1, 0, 0, 1
0.01335, 0, 0, 1, 1, 0, 0, 1, 1
0.01365, 0, 1, 0, 1, 0, 0, 0, 1
0.01370, 0, 1, 1, 0, 0, 0, 1, 0
0.01375, 0, 0, 1, 0, 0, 0, 1, 0
0.01380, 0, 0, 0, 0, 0, 0, 0, 0
0.01420, 0, 1, 0, 0, 0, 0, 0, 0
0.01425, 0, 1, 1, 0, 0, 0, 1, 0
0.01430, 0, 1, 0, 1, 0, 0, 0, 1
0.01440, 0, 0, 1, 1, 0, 0, 1, 1
0.01465, 0, 1, 0, 1, 0, 0, 0, 1
0.01470, 0, 1, 1, 0, 0, 0, 1, 0
0.01475, 1, 1, 0, 0, 1, 0, 0, 0
0.01480, 0, 0, 0, 0, 0, 0, 0, 0
0.01520, 0, 0, 1, 0, 1, 0, 0, 0
0.01525, 0, 1, 1, 0, 0, 0, 1, 0
0.01530, 0, 1, 0, 1, 0, 0, 0, 1
0.01540, 0, 0, 1, 1, 0, 0, 1, 1
0.01565, 0, 0, 0, 1, 0, 0, 0, 1
0.01570, 1, 1, 1, 0, 1, 0, 1, 0
0.01575, 1, 0, 0, 0, 1, 0, 0, 0
0.01580, 0, 0, 0, 0, 0, 0, 0, 0
0.01620, 0, 1, 0, 0, 0, 0, 0, 0
0.01625, 0, 1, 1, 0, 0, 0, 1, 0
0.01630, 0, 0, 0, 1, 0, 0, 0, 1
0.01635, 0, 1, 0, 1, 0, 0, 0, 1
0.01640, 0, 0, 1, 1, 0, 0, 1, 1
0.01665, 0, 0, 0, 1, 0, 0, 0, 1
0.01670, 0, 1, 1, 0, 0, 0, 1, 0
0.01675, 1, 1, 0, 0, 1, 0, 0, 0
0.01680, 0, 0, 0, 0, 0, 0, 0, 0
0.01720, 0, 0, 1, 0, 0, 0, 0, 0
0.01725, 1, 1, 1, 0, 1, 0, 1, 0
0.01730, 0, 1, 0, 1, 0, 0, 0, 1
0.01740, 0, 0, 1, 1, 0, 0, 1, 1
0.01765, 0, 1, 0, 1, 0, 0, 0, 1
0.01770, 1, 1, 1, 0, 1, 0, 1, 0
0.01775, 0, 1, 0, 0, 0, 0, 0, 0
0.01780, 1, 0, 0, 0, 1, 0, 0, 0
0.01785, 0, 0, 0, 0, 0, 0, 0, 0
0.01820, 0, 1, 0, 0, 0, 0, 0, 0
0.01825, 0, 1, 1, 0, 0, 0, 1, 0
0.01830, 0, 1, 0, 1, 0, 0, 0, 1
0.01840, 0, 0, 1, 1, 0, 0, 1, 1
0.01865, 0, 1, 0, 1, 0, 0, 0, 1
0.01870, 0, 0, 0, 0, 0, 0, 1, 0
0.01875, 1, 0, 1, 0, 1, 0, 1, 0
0.01880, 0, 0, 0, 0, 0, 0, 0, 0
0.01920, 0, 1, 0, 0, 0, 0, 0, 0
0.01925, 0, 1, 1, 0, 0, 0, 1, 0
0.01930, 1, 0, 0, 1, 1, 0, 0, 1
0.01935, 0, 1, 0, 1, 0, 0, 0, 1
0.01940, 0, 0, 1, 1, 0, 0, 1, 1
0.01965, 1, 0, 1, 1, 1, 0, 1, 1
0.01970, 0, 1, 1, 0, 0, 0, 1, 0
0.01975, 0, 0, 1, 0, 0, 0, 1, 0
0.01980, 0, 0, 0, 0, 0, 0, 0, 0
0.02020, 1, 0, 0, 0, 1, 0, 0, 0
0.02025, 1, 1, 1, 0, 0, 0, 1, 1
0.02030, 0, 1, 0, 1, 0, 0, 1, 0
0.02035, 0, 0, 1, 1, 0, 0, 1, 1
0.02065, 0, 1, 0, 1, 0, 0, 0, 1
0.02070, 0, 1, 1, 0, 0, 0, 1, 0
0.02075, 1, 0, 0, 0, 1, 0, 0, 0
0.02080, 0, 0, 0, 0, 0, 0, 0, 0
0.02120, 0, 1, 0, 0, 0, 0, 0, 0
0.02125, 0, 1, 1, 0, 0, 0, 1, 0
0.02130, 0, 0, 0, 1, 0, 0, 0, 1
0.02135, 0, 1, 0, 1, 0, 0, 0, 1
0.02140, 0, 0, 1, 1, 0, 0, 1, 1
0.02165, 0, 0, 0, 1, 0, 0, 0, 1
0.02170, 0, 1, 1, 0, 0, 0, 1, 0
0.02175, 0, 0, 1, 0, 0, 0, 1, 0
0.02180, 0, 0, 0, 0, 0, 0, 0, 0
0.02220, 0, 1, 0, 0, 0, 0, 0, 0
0.02225, 0, 0, 1, 0, 0, 0, 1, 0
0.02230, 0, 1, 0, 1, 0, 0, 0, 1
0.02240, 0, 0, 1, 1, 0, 0, 1, 1
0.02265, 0, 0, 0, 1, 0, 0, 0, 1
0.02270, 0, 1, 1, 0, 0, 0, 1, 0
0.02275, 1, 1, 0, 0, 1, 0, 0, 0
0.02280, 0, 0, 0, 0, 0, 0, 0, 0
0.02320, 0, 1, 0, 0, 0, 0, 0, 0
0.02325, 1, 0, 1, 0, 0, 0, 0, 1
0.02330, 1, 0, 0, 1, 1, 0, 0, 1
0.02335, 0, 1, 0, 1, 0, 0, 0, 1
0.02340, 0, 0, 1, 1, 0, 0, 1, 1
0.02350, 1, 1, 1, 1, 1, 0, 1, 1
0.02365, 1, 0, 0, 1, 1, 0, 0, 1
0.02370, 0, 1, 1, 0, 0, 0, 1, 0
0.02375, 0, 0, 1, 0, 0, 0, 1, 0
0.02380, 0, 0, 0, 0, 0, 0, 0, 0
0.02420, 0, 0, 1, 0, 0, 0, 1, 0
0.02425, 0, 1, 1, 0, 0, 0, 1, 0
0.02430, 1, 0, 0, 1, 1, 0, 0, 1
0.02435, 0, 0, 1, 1, 0, 0, 1, 1
0.02465, 1, 0, 0, 1, 1, 0, 0, 1
0.02470, 0, 1, 1, 0, 0, 0, 1, 0
0.02475, 1, 1, 0, 0, 1, 0, 0, 0
0.02480, 0, 0, 0, 0, 0, 0, 0, 0
0.02520, 0, 1, 0, 0, 0, 0, 0, 0
0.02525, 0, 1, 1, 0, 0, 0, 1, 0
0.02530, 0, 0, 0, 1, 0, 0, 0, 1
0.02535, 0, 1, 0, 1, 0, 0, 0, 1
0.02540, 0, 0, 1, 1, 0, 0, 1, 1
0.02565, 1, 0, 0, 1, 1, 0, 0, 1
0.02570, 0, 0, 0, 0, 1, 0, 0, 0
0.02575, 1, 1, 0, 0, 1, 0, 0, 0
0.02580, 1, 0, 0, 0, 1, 0, 0, 0
0.02585, 0, 0, 0, 0, 0, 0, 0, 0
0.02620, 0, 1, 0, 0, 1, 0, 0, 0
0.02625, 0, 1, 1, 0, 0, 0, 1, 0
0.02630, 0, 1, 0, 1, 0, 0, 0, 1
0.02640, 0, 0, 1, 1, 0, 0, 1, 1
0.02665, 0, 1, 0, 1, 0, 0, 0, 1
0.02670, 0, 1, 1, 0, 0, 0, 1, 0
0.02675, 0, 0, 1, 0, 0, 0, 1, 0
0.02680, 0, 0, 0, 0, 0, 0, 0, 0
0.02720, 0, 1, 0, 0, 0, 0, 0, 0
0.02725, 0, 1, 1, 0, 0, 0, 1, 0
0.02730, 0, 0, 0, 1, 0, 0, 0, 1
0.02735, 0, 1, 0, 1, 0, 0, 0, 1
0.02740, 0, 0, 1, 1, 0, 0, 1, 1
0.02765, 0, 0, 0, 1, 0, 0, 0, 0
0.02770, 1, 1, 1, 0, 1, 0, 1, 0
0.02775, 1, 1, 0, 0, 1, 0, 0, 0
0.02780, 0, 0, 0, 0, 0, 0, 0, 0
0.02820, 0, 1, 0, 0, 1, 0, 0, 0
0.02825, 0, 1, 1, 0, 0, 0, 1, 0
0.02830, 1, 1, 1, 0, 1, 0, 1, 0
0.02835, 0, 0, 1, 1, 0, 0, 1, 1
0.02865, 0, 1, 0, 1, 0, 0, 0, 1
0.02870, 0, 1, 1, 0, 0, 0, 1, 0
0.02875, 0, 0, 1, 0, 1, 0, 0, 0
0.02880, 0, 0, 0, 0, 0, 0, 0, 0
0.02920, 0, 1, 0, 0, 0, 0, 0, 0
0.02925, 0, 0, 1, 0, 0, 0, 1, 0
0.02930, 1, 0, 0, 1, 1, 0, 0, 1
0.02935, 0, 1, 0, 1, 0, 0, 0, 1
0.02940, 0, 0, 1, 1, 0, 0, 1, 1
0.02965, 0, 1, 0, 1, 0, 0, 0, 1
0.02970, 0, 1, 1, 0, 0, 0, 1, 0
0.02975, 1, 0, 0, 0, 0, 0, 1, 0
0.02980, 0, 0, 0, 0, 0, 0, 0, 0
0.03020, 0, 1, 0, 0, 0, 0, 0, 0
0.03025, 0, 0, 1, 0, 0, 0, 1, 0
0.03030, 1, 0, 0, 1, 1, 0, 0, 1
0.03035, 0, 1, 0, 1, 0, 0, 0, 1
0.03040, 1, 0, 1, 1, 1, 0, 1, 1
0.03065, 1, 1, 1, 0, 1, 0, 1, 0
0.03075, 1, 1, 0, 0, 1, 0, 0, 0
0.03080, 0, 0, 0, 0, 0, 0, 0, 0
0.03120, 1, 0, 0, 0, 1, 0, 0, 0
0.03125, 1, 0, 1, 0, 1, 0, 1, 0
0.03130, 0, 0, 0, 1, 0, 0, 0, 1
0.03135, 0, 1, 0, 1, 0, 0, 0, 1
0.03140, 0, 0, 1, 1, 0, 0, 1, 1
0.03165, 0, 1, 0, 1, 0, 0, 0, 1
0.03170, 0, 1, 1, 0, 0, 0, 1, 0
0.03175, 0, 1, 0, 0, 0, 0, 0, 0
0.03180, 0, 0, 0, 0, 0, 0, 0, 0
0.03220, 0, 1, 0, 0, 0, 0, 0, 0
0.03225, 0, 0, 1, 0, 0, 0, 1, 0
0.03230, 0, 0, 0, 0, 1, 0, 0, 0
0.03235, 0, 1, 0, 1, 0, 0, 0, 1
0.03240, 0, 0, 1, 1, 0, 0, 1, 1
0.03265, 0, 1, 0, 1, 0, 0, 0, 1
0.03270, 0, 1, 1, 0, 0, 0, 1, 0
0.03275, 0, 0, 1, 0, 0, 0, 1, 0
0.03280, 0, 0, 0, 0, 0, 0, 0, 0
0.03320, 0, 1, 0, 0, 0, 0, 0, 0
0.03325, 0, 0, 1, 0, 0, 0, 1, 0
0.03330, 0, 1, 1, 0, 0, 0, 1, 0
0.03335, 0, 0, 1, 1, 0, 0, 1, 1
0.03365, 0, 1, 0, 1, 0, 0, 0, 1
0.03370, 1, 1, 1, 0, 1, 0, 1, 0
0.03375, 1, 1, 0, 0, 1, 0, 0, 0
0.03380, 0, 0, 0, 0, 0, 0, 0, 0
0.03420, 0, 1, 0, 0, 0, 0, 0, 0
0.03425, 0, 0, 1, 0, 0, 0, 1, 0
0.03430, 0, 0, 0, 0, 1, 0, 1, 0
0.03435, 0, 1, 0, 1, 0, 0, 0, 1
0.03440, 0, 0, 1, 1, 0, 0, 1, 1
0.03465, 1, 0, 0, 1, 1, 0, 0, 1
0.03470, 0, 1, 1, 0, 0, 0, 1, 0
0.03475, 1, 0, 1, 0, 1, 0, 1, 0
0.03480, 0, 0, 0, 0, 0, 0, 0, 0
0.03520, 0, 1, 0, 0, 0, 0, 0, 0
0.03525, 1, 1, 1, 0, 1, 0, 1, 0
0.03530, 1, 1, 0, 1, 1, 0, 1, 1
0.03535, 0, 1, 0, 1, 0, 0, 0, 1
0.03540, 0, 0, 1, 1, 0, 0, 1, 1
0.03565, 0, 1, 0, 1, 0, 0, 0, 1
0.03570, 0, 1, 1, 0, 0, 0, 1, 0
0.03575, 0, 1, 1, 0, 1, 0, 0, 0
0.03580, 0, 0, 0, 0, 0, 0, 0, 0
0.03620, 0, 1, 0, 0, 0, 0, 0, 0
0.03625, 1, 0, 1, 0, 1, 0, 1, 0
0.03630, 0, 0, 0, 1, 0, 0, 0, 1
0.03635, 0, 1, 0, 1, 0, 0, 0, 1
0.03640, 0, 0, 1, 1, 0, 0, 1, 1
0.03665, 0, 1, 0, 1, 0, 0, 0, 1
0.03670, 1, 1, 1, 0, 1, 0, 1, 0
0.03675, 1, 1, 0, 0, 1, 0, 0, 0
0.03680, 1, 0, 0, 0, 1, 0, 0, 0
0.03685, 0, 0, 0, 0, 0, 0, 0, 0
0.03720, 0, 1, 0, 0, 1, 0, 0, 0
0.03725, 0, 1, 1, 0, 0, 0, 1, 0
0.03730, 0, 1, 1, 0, 0, 0, 0, 1
0.03735, 1, 1, 0, 1, 1, 0, 0, 1
0.03740, 0, 0, 1, 1, 0, 0, 1, 1
0.03770, 0, 1, 1, 0, 0, 0, 1, 0
0.03775, 1, 0, 0, 0, 1, 0, 0, 0
0.03780, 0, 0, 0, 0, 0, 0, 0, 0
0.03820, 0, 0, 1, 0, 0, 0, 1, 0
0.03830, 0, 1, 0, 1, 0, 0, 0, 1
0.03840, 0, 0, 1, 1, 0, 0, 1, 1
0.03865, 0, 1, 0, 1, 0, 0, 0, 1
0.03870, 1, 1, 1, 0, 1, 0, 1, 0
0.03875, 1, 1, 0, 0, 1, 0, 0, 0
0.03880, 0, 0, 0, 0, 0, 0, 0, 0
0.03920, 0, 1, 0, 0, 0, 0, 0, 0
0.03925, 0, 1, 1, 0, 0, 0, 1, 0
0.03930, 0, 0, 0, 1, 0, 0, 0, 1
0.03935, 0, 1, 0, 1, 0, 0, 0, 1
0.03940, 0, 0, 1, 1, 0, 0, 1, 1
0.03965, 1, 0, 0, 1, 1, 0, 0, 1
0.03970, 0, 1, 1, 0, 0, 0, 1, 0
0.03975, 0, 0, 1, 0, 0, 0, 1, 0
0.03980, 1, 0, 0, 0, 1, 0, 0, 0
0.03985, 0, 0, 0, 0, 0, 0, 0, 0
0.04020, 0, 1, 0, 0, 0, 0, 0, 0
0.04025, 0, 1, 1, 0, 0, 0, 1, 0
0.04030, 0, 1, 0, 1, 0, 0, 0, 1
0.04040, 0, 0, 1, 1, 0, 0, 1, 1
0.04065, 0, 1, 0, 1, 0, 0, 0, 1
0.04070, 1, 1, 1, 0, 1, 0, 1, 0
0.04075, 1, 1, 0, 0, 1, 0, 0, 0
0.04080, 0, 0, 0, 0, 0, 0, 0, 0
0.04120, 0, 1, 0, 0, 0, 0, 0, 0
0.04125, 0, 0, 1, 0, 0, 0, 1, 0
0.04130, 1, 1, 1, 1, 1, 0, 1, 1
0.04135, 1, 0, 0, 1, 1, 0, 0, 1
0.04140, 0, 0, 1, 1, 0, 0, 1, 1
0.04165, 1, 0, 0, 1, 1, 0, 0, 1
0.04170, 1, 1, 1, 0, 1, 0, 1, 0
0.04175, 0, 1, 0, 0, 0, 0, 0, 0
0.04180, 0, 0, 0, 0, 0, 0, 0, 0
0.04220, 0, 1, 0, 0, 1, 0, 0, 0
0.04225, 0, 0, 1, 0, 0, 0, 1, 0
0.04230, 0, 0, 0, 1, 0, 0, 0, 1
0.04235, 0, 1, 0, 1, 0, 0, 0, 1
0.04240, 0, 0, 1, 1, 0, 0, 1, 1
0.04265, 0, 1, 0, 1, 0, 0, 0, 1
0.04270, 0, 0, 1, 0, 0, 0, 1, 0
0.04280, 0, 0, 0, 0, 0, 0, 0, 0
0.04320, 0, 1, 0, 0, 0, 0, 0, 0
0.04325, 1, 1, 1, 0, 1, 0, 1, 0
0.04330, 1, 0, 0, 1, 1, 0, 0, 1
0.04335, 0, 0, 1, 1, 0, 0, 1, 1
0.04365, 1, 0, 0, 1, 1, 0, 0, 1
0.04370, 0, 0, 0, 0, 1, 0, 0, 0
0.04375, 0, 1, 0, 0, 0, 0, 0, 0
0.04380, 0, 0, 0, 0, 0, 0, 0, 0
0.04420, 0, 1, 0, 0, 0, 0, 0, 0
0.04425, 0, 1, 1, 0, 0, 0, 1, 0
0.04430, 0, 0, 0, 1, 0, 0, 0, 1
0.04435, 0, 1, 0, 1, 0, 0, 0, 1
0.04440, 0, 0, 1, 1, 0, 0, 1, 1
0.04465, 1, 0, 0, 1, 0, 0, 0, 1
0.04470, 1, 1, 1, 0, 1, 0, 1, 0
0.04475, 1, 1, 0, 0, 1, 0, 0, 0
0.04480, 1, 0, 0, 0, 1, 0, 0, 0
0.04485, 0, 0, 0, 0, 0, 0, 0, 0
0.04520, 0, 1, 0, 0, 0, 0, 0, 0
0.04525, 0, 1, 1, 0, 0, 0, 1, 0
0.04530, 0, 0, 0, 0, 1, 0, 0, 0
0.04535, 0, 1, 0, 1, 0, 0, 0, 1
0.04540, 0, 0, 1, 1, 0, 0, 1, 1
0.04555, 0, 1, 1, 1, 0, 0, 1, 1
0.04560, 0, 0, 1, 1, 0, 0, 1, 1
0.04570, 0, 1, 1, 0, 0, 0, 1, 0
0.04575, 0, 0, 1, 0, 1, 0, 0, 0
0.04580, 1, 0, 0, 0, 1, 0, 0, 0
0.04585, 0, 0, 0, 0, 0, 0, 0, 0
0.04620, 0, 1, 0, 0, 0, 0, 0, 0
0.04625, 0, 1, 1, 0, 0, 0, 1, 0
0.04630, 0, 0, 0, 1, 0, 0, 0, 1
0.04635, 0, 0, 1, 1, 0, 0, 1, 1
0.04640, 0, 0, 1, 1, 1, 0, 0, 1
0.04645, 0, 0, 1, 1, 0, 0, 1, 1
0.04665, 0, 1, 0, 1, 0, 0, 0, 1
0.04670, 0, 1, 1, 0, 0, 0, 1, 0
0.04675, 1, 1, 0, 0, 1, 0, 0, 0
0.04680, 0, 0, 0, 0, 0, 0, 0, 0
0.04720, 0, 0, 1, 0, 0, 0, 0, 0
0.04725, 0, 1, 1, 0, 0, 0, 1, 0
0.04730, 0, 0, 0, 1, 0, 0, 0, 1
0.04735, 0, 0, 1, 1, 0, 0, 1, 1
0.04765, 1, 0, 0, 1, 1, 0, 0, 1
0.04770, 1, 1, 1, 0, 1, 0, 1, 0
0.04775, 0, 1, 0, 0, 0, 0, 0, 0
0.04780, 1, 0, 0, 0, 1, 0, 0, 0
0.04785, 0, 0, 0, 0, 0, 0, 0, 0
0.04820, 0, 1, 0, 0, 0, 0, 0, 0
0.04825, 0, 1, 1, 0, 0, 0, 1, 0
0.04830, 1, 1, 1, 0, 1, 0, 1, 0
0.04835, 0, 1, 0, 1, 0, 0, 0, 1
0.04840, 0, 0, 1, 1, 0, 0, 1, 1
0.04865, 0, 1, 0, 1, 0, 0, 0, 1
0.04870, 0, 1, 1, 0, 0, 0, 1, 0
0.04875, 1, 0, 1, 0, 1, 0, 1, 0
0.04880, 0, 0, 0, 0, 0, 0, 0, 0
0.04920, 0, 0, 1, 0, 0, 0, 0, 0
0.04925, 0, 0, 1, 0, 0, 0, 1, 0
0.04930, 1, 0, 0, 1, 1, 0, 0, 1
0.04935, 0, 1, 0, 1, 0, 0, 0, 1
0.04940, 0, 0, 1, 1, 0, 0, 1, 1
0.04965, 1, 0, 0, 1, 1, 0, 0, 1
0.04970, 0, 0, 1, 0, 0, 0, 1, 0
0.04975, 1, 1, 0, 0, 1, 0, 0, 0
0.04980, 0, 0, 0, 0, 0, 0, 0, 0
0.05020, 0, 1, 0, 0, 0, 0, 0, 0
0.05025, 0, 1, 1, 0, 0, 0, 1, 0
0.05030, 0, 0, 0, 1, 0, 0, 0, 1
0.05035, 1, 1, 0, 1, 1, 0, 0, 1
0.05040, 0, 0, 1, 1, 0, 0, 1, 1
0.05065, 0, 0, 0, 1, 0, 0, 0, 1
0.05070, 0, 1, 1, 0, 0, 0, 1, 0
0.05075, 0, 1, 0, 0, 0, 0, 0, 0
0.05080, 0, 0, 0, 0, 0, 0, 0, 0
0.05120, 0, 1, 0, 0, 0, 0, 0, 0
0.05125, 0, 1, 1, 0, 0, 0, 1, 0
0.05130, 0, 0, 0, 1, 0, 0, 0, 1
0.05135, 0, 1, 0, 1, 0, 0, 0, 1
0.05140, 0, 0, 1, 1, 0, 0, 1, 1
0.05165, 0, 0, 0, 1, 0, 0, 0, 1
0.05170, 1, 1, 1, 0, 1, 0, 1, 0
0.05175, 1, 1, 0, 0, 1, 0, 0, 0
0.05180, 0, 0, 0, 0, 0, 0, 0, 0
0.05220, 0, 1, 0, 0, 0, 0, 0, 0
0.05225, 0, 0, 1, 0, 0, 0, 1, 0
0.05230, 0, 0, 0, 1, 0, 0, 0, 1
0.05235, 0, 1, 0, 1, 0, 0, 0, 1
0.05240, 0, 0, 1, 1, 0, 0, 1, 1
0.05265, 1, 0, 0, 1, 1, 0, 0, 1
0.05270, 0, 1, 1, 0, 0, 0, 1, 0
0.05275, 0, 0, 1, 0, 0, 0, 1, 0
0.05280, 0, 0, 0, 0, 0, 0, 0, 0
0.05320, 0, 1, 0, 0, 0, 0, 0, 0
0.05325, 0, 0, 1, 0, 0, 0, 1, 0
0.05330, 0, 0, 1, 1, 0, 0, 1, 1
0.05340, 0, 1, 1, 1, 0, 0, 1, 1
0.05345, 0, 0, 1, 1, 0, 0, 1, 1
0.05350, 0, 1, 1, 1, 0, 0, 1, 1
0.05360, 0, 0, 1, 1, 0, 0, 1, 1
0.05365, 0, 1, 1, 0, 0, 0, 1, 0
0.05370, 1, 0, 1, 0, 1, 0, 1, 0
0.05375, 1, 0, 0, 0, 1, 0, 0, 0
0.05380, 0, 0, 0, 0, 0, 0, 0, 0
0.05420, 0, 1, 0, 0, 0, 0, 0, 0
0.05425, 0, 1, 1, 0, 0, 0, 1, 0
0.05430, 1, 0, 0, 1, 1, 0, 0, 1
0.05435, 0, 1, 0, 1, 0, 0, 0, 1
0.05440, 0, 0, 1, 1, 0, 0, 1, 1
0.05465, 1, 0, 0, 1, 1, 0, 0, 1
0.05470, 0, 0, 1, 0, 0, 0, 1, 0
0.05475, 1, 1, 0, 0, 1, 0, 0, 0
0.05480, 0, 0, 0, 0, 0, 0, 0, 0
0.05520, 0, 0, 1, 0, 1, 0, 0, 0
0.05525, 0, 1, 1, 0, 0, 0, 1, 0
0.05535, 0, 1, 0, 1, 0, 0, 0, 1
0.05540, 0, 0, 1, 1, 0, 0, 1, 1
0.05565, 1, 0, 0, 1, 1, 0, 0, 1
0.05570, 0, 1, 1, 0, 0, 0, 1, 0
0.05575, 0, 1, 0, 0, 0, 0, 0, 0
0.05580, 0, 0, 0, 0, 0, 0, 0, 0
0.05620, 0, 0, 1, 0, 0, 0, 0, 0
0.05625, 0, 1, 1, 0, 0, 0, 1, 0
0.05630, 0, 0, 0, 1, 0, 0, 0, 1
0.05635, 0, 1, 0, 1, 0, 0, 0, 1
0.05640, 0, 0, 1, 1, 0, 0, 1, 1
0.05665, 0, 0, 0, 1, 0, 0, 0, 1
0.05670, 0, 0, 1, 0, 0, 0, 1, 0
0.05675, 0, 0, 0, 0, 0, 0, 1, 0
0.05680, 0, 0, 0, 0, 0, 0, 0, 0
0.05720, 1, 0, 0, 0, 1, 0, 0, 0
0.05725, 0, 1, 1, 0, 0, 0, 1, 0
0.05730, 1, 0, 0, 1, 1, 0, 0, 1
0.05735, 0, 0, 1, 1, 0, 0, 1, 1
0.05750, 0, 1, 1, 1, 0, 0, 1, 1
0.05760, 0, 0, 1, 1, 0, 0, 1, 1
0.05765, 0, 1, 0, 1, 0, 0, 0, 1
0.05770, 1, 1, 1, 0, 1, 0, 1, 0
0.05775, 0, 1, 0, 0, 0, 0, 0, 0
0.05780, 1, 0, 0, 0, 1, 0, 0, 0
0.05785, 0, 0, 0, 0, 0, 0, 0, 0
0.05820, 0, 1, 0, 0, 0, 0, 0, 0
0.05825, 1, 1, 0, 1, 1, 0, 0, 1
0.05830, 0, 0, 0, 1, 0, 0, 0, 1
0.05835, 0, 1, 0, 1, 0, 0, 0, 1
0.05840, 0, 0, 1, 1, 0, 0, 1, 1
0.05845, 0, 1, 1, 1, 0, 0, 1, 1
0.05870, 0, 1, 1, 0, 0, 0, 1, 0
0.05875, 1, 0, 0, 0, 1, 0, 0, 0
0.05880, 0, 0, 0, 0, 0, 0, 0, 0
0.05920, 0, 1, 0, 0, 0, 0, 0, 0
0.05925, 1, 0, 1, 0, 1, 0, 1, 0
0.05930, 0, 0, 0, 1, 0, 0, 0, 1
0.05935, 0, 0, 1, 1, 0, 0, 1, 1
0.05965, 0, 1, 0, 1, 0, 0, 0, 1
0.05970, 1, 0, 1, 0, 1, 0, 1, 0
0.05975, 0, 0, 1, 0, 0, 0, 1, 0
0.05980, 0, 0, 0, 0, 0, 0, 0, 0
0.06020, 0, 1, 0, 0, 0, 0, 0, 0
0.06025, 1, 0, 1, 0, 1, 0, 1, 0
0.06030, 0, 1, 0, 1, 0, 0, 0, 1
0.06040, 0, 0, 0, 0, 0, 0, 0, 0
0.06045, 0, 0, 1, 1, 0, 0, 1, 1
0.06065, 1, 0, 0, 1, 1, 0, 0, 1
0.06070, 0, 1, 1, 0, 0, 0, 1, 0
0.06075, 0, 1, 1, 0, 1, 0, 0, 0
0.06080, 0, 0, 0, 0, 0, 0, 0, 0
0.06120, 0, 1, 0, 0, 0, 0, 0, 0
0.06125, 0, 1, 1, 0, 0, 0, 1, 0
0.06130, 1, 0, 0, 1, 1, 0, 0, 1
0.06135, 1, 1, 0, 1, 1, 0, 0, 1
0.06145, 1, 0, 1, 1, 1, 0, 1, 1
0.06165, 0, 1, 0, 1, 0, 0, 0, 1
0.06170, 0, 0, 0, 0, 1, 0, 0, 0
0.06175, 1, 0, 0, 0, 1, 0, 0, 0
0.06185, 0, 0, 0, 0, 0, 0, 0, 0
0.06220, 0, 1, 0, 0, 0, 0, 0, 0
0.06225, 0, 1, 1, 0, 0, 0, 1, 0
0.06230, 0, 0, 0, 0, 1, 0, 0, 0
0.06235, 0, 1, 0, 1, 0, 0, 0, 1
0.06240, 0, 0, 1, 1, 0, 0, 1, 1
0.06265, 0, 1, 0, 1, 0, 0, 0, 1
0.06270, 0, 1, 1, 0, 0, 0, 1, 0
0.06275, 1, 0, 0, 0, 1, 0, 0, 0
0.06280, 0, 0, 0, 0, 0, 0, 0, 0
0.06320, 0, 1, 0, 0, 0, 0, 0, 0
0.06325, 0, 1, 1, 0, 0, 0, 1, 0
0.06330, 0, 0, 0, 1, 0, 0, 0, 1
0.06335, 0, 1, 0, 1, 0, 0, 0, 1
0.06340, 0, 0, 1, 1, 0, 0, 1, 1
0.06365, 0, 1, 0, 1, 0, 0, 0, 1
0.06370, 1, 1, 1, 0, 1, 0, 1, 0
0.06375, 1, 0, 0, 0, 1, 0, 0, 0
0.06380, 0, 0, 0, 0, 0, 0, 0, 0
0.06420, 0, 0, 1, 0, 0, 0, 0, 0
0.06425, 0, 1, 1, 0, 0, 0, 1, 0
0.06430, 0, 0, 0, 1, 0, 0, 0, 1
0.06435, 0, 1, 0, 1, 0, 0, 0, 1
0.06440, 0, 0, 1, 1, 0, 0, 1, 1
0.06465, 0, 0, 0, 1, 0, 0, 0, 1
0.06470, 1, 0, 1, 0, 1, 0, 1, 0
0.06475, 1, 0, 0, 0, 1, 0, 0, 0
0.06485, 0, 0, 0, 0, 0, 0, 0, 0
0.06520, 0, 1, 0, 0, 0, 0, 0, 0
0.06525, 0, 0, 1, 0, 0, 0, 1, 0
0.06530, 0, 0, 0, 1, 0, 0, 0, 1
0.06535, 0, 1, 0, 1, 0, 0, 0, 1
0.06540, 0, 0, 1, 1, 0, 0, 1, 1
0.06565, 0, 0, 0, 1, 0, 0, 0, 1
0.06570, 0, 1, 1, 0, 0, 0, 1, 0
0.06575, 0, 0, 1, 0, 0, 0, 1, 0
0.06580, 0, 0, 0, 0, 0, 0, 0, 0
0.06620, 0, 1, 0, 0, 0, 0, 0, 0
0.06625, 1, 0, 1, 0, 1, 0, 1, 0
0.06630, 1, 0, 0, 1, 1, 0, 0, 1
0.06635, 0, 1, 0, 1, 0, 0, 0, 1
0.06645, 0, 1, 1, 1, 0, 0, 1, 1
0.06670, 0, 1, 1, 0, 0, 0, 1, 0
0.06675, 1, 1, 0, 0, 1, 0, 0, 0
0.06680, 0, 0, 0, 0, 0, 0, 0, 0
0.06720, 0, 1, 0, 0, 1, 0, 0, 0
0.06725, 1, 0, 1, 0, 1, 0, 1, 0
0.06730, 0, 0, 0, 1, 0, 0, 0, 1
0.06735, 0, 0, 1, 1, 0, 0, 1, 1
0.06765, 1, 0, 0, 1, 1, 0, 0, 1
0.06770, 1, 1, 1, 0, 1, 0, 1, 0
0.06775, 1, 1, 0, 0, 1, 0, 0, 0
0.06780, 0, 0, 0, 0, 0, 0, 0, 0
0.06820, 0, 1, 0, 0, 0, 0, 0, 0
